
**** 11/18/25 09:43:43 *** PSpice 24.1.0 (4 September 2024) *** ID# 0 ********

 ** Profile: "PART 1-Step 1_3"  [ c:\users\dosanj5\onedrive - mcmaster university\school files\2025 - 2026\elec 3ej4\lab 5\pspice\3ej


 ****     CIRCUIT DESCRIPTION


******************************************************************************




** Creating circuit file "Step 1_3.cir" 
** WARNING: THIS AUTOMATICALLY GENERATED FILE MAY BE OVERWRITTEN BY SUBSEQUENT SIMULATIONS

*Libraries: 
* Profile Libraries :
* Local Libraries :
* From [PSPICE NETLIST] section of C:\Users\dosanj5\AppData\Roaming\SPB_Data\cdssetup\OrCAD_PSpice\24.1.0\PSpice.ini file:
.lib "C:\Users\dosanj5\OneDrive - McMaster University\School Files\2025 - 2026\ELEC 3EJ4\Model Parts\Op-Amp TLV2371.LIB" 
.lib "C:\Users\dosanj5\OneDrive - McMaster University\School Files\2025 - 2026\ELEC 3EJ4\Model Parts\My2N3906.LIB" 
.lib "C:\Users\dosanj5\OneDrive - McMaster University\School Files\2025 - 2026\ELEC 3EJ4\Model Parts\My2N3904.LIB" 
.lib "nom.lib" 

*Analysis directives: 
.AC DEC 101 1Hz 100kHz
.OPTIONS ADVCONV
.PROBE64 V(alias(*)) I(alias(*)) W(alias(*)) D(alias(*)) NOISE(alias(*)) 
.INC "..\PART 1.net" 



**** INCLUDING "PART 1.net" ****
* source 3EJ4 LAB 5
R_R2         VN VOUT  100k TC=0,0 
R_R3         0 VN  200k TC=0,0 
X_U1         VP VN N01734 N01798 VOUT TLV2371
R_R1         N01658 VP  100k TC=0,0 
V_VSS         N01798 0 -5V
V_VDD         N01734 0 5V
C_C1         0 VP  1n  TC=0,0 
V_Vin         N01658 0 DC 0Vdc AC 100mVac 0

**** RESUMING "Step 1_3.cir" ****
.END

**** 11/18/25 09:43:43 *** PSpice 24.1.0 (4 September 2024) *** ID# 0 ********

 ** Profile: "PART 1-Step 1_3"  [ c:\users\dosanj5\onedrive - mcmaster university\school files\2025 - 2026\elec 3ej4\lab 5\pspice\3ej


 ****     Diode MODEL PARAMETERS


******************************************************************************




               X_U1.DVN        X_U1.DD         X_U1.DIN        
          IS  100.000000E-18   10.000000E-15   10.000000E-15 
          KF    8.000000E-12                                 


**** 11/18/25 09:43:43 *** PSpice 24.1.0 (4 September 2024) *** ID# 0 ********

 ** Profile: "PART 1-Step 1_3"  [ c:\users\dosanj5\onedrive - mcmaster university\school files\2025 - 2026\elec 3ej4\lab 5\pspice\3ej


 ****     BJT MODEL PARAMETERS


******************************************************************************




               X_U1.QLN        X_U1.QLP        
               NPN             PNP             
       LEVEL    1               1            
          IS  100.000000E-18  100.000000E-18 
          BF  100             100            
          NF    1               1            
          BR    1               1            
          NR    1               1            
         ISS    0               0            
          RE    0               0            
          RC    0               0            
         CJE    0               0            
         VJE     .75             .75         
         CJC    0               0            
         VJC     .75             .75         
         MJC     .33             .33         
        XCJC    1               1            
         CJS    0               0            
         VJS     .75             .75         
          KF    0               0            
          AF    1               1            
          CN    2.42            2.2          
           D     .87             .52         


**** 11/18/25 09:43:43 *** PSpice 24.1.0 (4 September 2024) *** ID# 0 ********

 ** Profile: "PART 1-Step 1_3"  [ c:\users\dosanj5\onedrive - mcmaster university\school files\2025 - 2026\elec 3ej4\lab 5\pspice\3ej


 ****     Junction FET MODEL PARAMETERS


******************************************************************************




               X_U1.JNC        
               NJF             
         VTO   -2            
        BETA  100.000000E-06 


**** 11/18/25 09:43:43 *** PSpice 24.1.0 (4 September 2024) *** ID# 0 ********

 ** Profile: "PART 1-Step 1_3"  [ c:\users\dosanj5\onedrive - mcmaster university\school files\2025 - 2026\elec 3ej4\lab 5\pspice\3ej


 ****     MOSFET MODEL PARAMETERS


******************************************************************************




               X_U1.POUT       X_U1.NOUT       X_U1.PIN        X_U1.NIN        
               PMOS            NMOS            PMOS            NMOS            
       LEVEL    1               1               1               1            
           L  100.000000E-06  100.000000E-06  100.000000E-06  100.000000E-06 
           W  100.000000E-06  100.000000E-06  100.000000E-06  100.000000E-06 
         VTO    -.7              .7             -.7              .7          
          KP  200.000000E-06  200.000000E-06  200.000000E-06  200.000000E-06 
       GAMMA    0               0               0               0            
         PHI     .6              .6              .6              .6          
      LAMBDA    0               0               0               0            
          IS   10.000000E-15   10.000000E-15   10.000000E-15   10.000000E-15 
          JS    0               0               0               0            
          PB     .8              .8              .8              .8          
        PBSW     .8              .8              .8              .8          
          CJ    0               0               0               0            
        CJSW    0               0               0               0            
        CGSO    0               0               0               0            
        CGDO    0               0               0               0            
        CGBO    0               0               0               0            
         TOX    0               0               0               0            
          XJ    0               0               0               0            
       UCRIT   10.000000E+03   10.000000E+03   10.000000E+03   10.000000E+03 
      DIOMOD    1               1               1               1            
         VFB    0               0               0               0            
        LETA    0               0               0               0            
        WETA    0               0               0               0            
          U0    0               0               0               0            
        TEMP    0               0               0               0            
         VDD    5               5               5               5            
       XPART    0               0               0               0            


               X_U1.NIQS       X_U1.NEN        X_U1.PEN        X_U1.PSW        
               NMOS            NMOS            PMOS            PMOS            
       LEVEL    1               1               1               1            
           L  100.000000E-06  100.000000E-06  100.000000E-06  100.000000E-06 
           W  100.000000E-06  100.000000E-06  100.000000E-06  100.000000E-06 
         VTO     .7              .5             -.7            -7.5          
          KP  200.000000E-06  200.000000E-06  200.000000E-06  200.000000E-06 
       GAMMA    0               0               0               0            
         PHI     .6              .6              .6              .6          
      LAMBDA    0               0               0               0            
          IS    1.000000E-18    1.000000E-18    1.000000E-18    1.000000E-18 
          JS    0               0               0               0            
          PB     .8              .8              .8              .8          
        PBSW     .8              .8              .8              .8          
          CJ    0               0               0               0            
        CJSW    0               0               0               0            
        CGSO    0               0               0               0            
        CGDO    0               0               0               0            
        CGBO    0               0               0               0            
         TOX    0               0               0               0            
          XJ    0               0               0               0            
       UCRIT   10.000000E+03   10.000000E+03   10.000000E+03   10.000000E+03 
      DIOMOD    1               1               1               1            
         VFB    0               0               0               0            
        LETA    0               0               0               0            
        WETA    0               0               0               0            
          U0    0               0               0               0            
        TEMP    0               0               0               0            
         VDD    5               5               5               5            
       XPART    0               0               0               0            


               X_U1.NSW        
               NMOS            
       LEVEL    1            
           L  100.000000E-06 
           W  100.000000E-06 
         VTO    7.5          
          KP  200.000000E-06 
       GAMMA    0            
         PHI     .6          
      LAMBDA    0            
          IS    1.000000E-18 
          JS    0            
          PB     .8          
        PBSW     .8          
          CJ    0            
        CJSW    0            
        CGSO    0            
        CGDO    0            
        CGBO    0            
         TOX    0            
          XJ    0            
       UCRIT   10.000000E+03 
      DIOMOD    1            
         VFB    0            
        LETA    0            
        WETA    0            
          U0    0            
        TEMP    0            
         VDD    5            
       XPART    0            


**** 11/18/25 09:43:43 *** PSpice 24.1.0 (4 September 2024) *** ID# 0 ********

 ** Profile: "PART 1-Step 1_3"  [ c:\users\dosanj5\onedrive - mcmaster university\school files\2025 - 2026\elec 3ej4\lab 5\pspice\3ej


 ****     SMALL SIGNAL BIAS SOLUTION       TEMPERATURE =   27.000 DEG C


******************************************************************************



 NODE   VOLTAGE     NODE   VOLTAGE     NODE   VOLTAGE     NODE   VOLTAGE


(   VN) 18.76E-09  (   VP)-99.58E-09  ( VOUT) 119.2E-09  (N01658)    0.0000     

(N01734)    5.0000 (N01798)   -5.0000 (X_U1.5)   -3.0000 (X_U1.7)   -4.2464     

(X_U1.8)   -4.9997 (X_U1.9)   -5.0000 (X_U1.10)     .7866                       

(X_U1.11)     .7867                   (X_U1.12)     .7866                       

(X_U1.13)   -4.9997                   (X_U1.14)    4.9997                       

(X_U1.15)    4.9997                   (X_U1.16)    4.9997                       

(X_U1.17)   -4.9997                   (X_U1.18)-315.9E-12                       

(X_U1.19)-315.9E-12                   (X_U1.20)    4.9997                       

(X_U1.21)    5.0000                   (X_U1.22)   -4.9997                       

(X_U1.23) 119.2E-09                   (X_U1.24)     .5955                       

(X_U1.25)     .5955                   (X_U1.26)     .7147                       

(X_U1.27)     .7147                   (X_U1.28) 18.76E-09                       

(X_U1.29)-99.58E-09                   (X_U1.30)    5.0000                       

(X_U1.31)   -5.0000                   (X_U1.32)-40.41E-09                       

(X_U1.33)-40.41E-09                   (X_U1.34) 500.0E-06                       

(X_U1.35)-500.0E-06                   (X_U1.36)-4.041E-12                       

(X_U1.37)-99.58E-09                   (X_U1.38) 18.76E-09                       

(X_U1.39)-99.58E-09                   (X_U1.40)-400.1E-06                       

(X_U1.41)    0.0000                   (X_U1.42)-87.14E-06                       

(X_U1.43)   -4.1188                   (X_U1.44) 87.38E-06                       

(X_U1.45)    4.1188                   (X_U1.46)    4.1265                       

(X_U1.47)   -4.9450                   (X_U1.48)-99.58E-09                       

(X_U1.49)   -4.9450                   (X_U1.50) 18.76E-09                       

(X_U1.51)   -4.1265                   (X_U1.52)    4.1188                       

(X_U1.53)   -4.1188                   (X_U1.54)-150.0E-09                       

(X_U1.55)    4.2464                   (X_U1.56)-99.58E-09                       

(X_U1.57)     .7867                   (X_U1.58)    4.2188                       

(X_U1.59)    5.0000                   (X_U1.60)   -5.0000                       

(X_U1.61) 18.76E-09                   (X_U1.62)-150.0E-09                       

(X_U1.63)    3.6092                   (X_U1.64)   -3.6092                       

(X_U1.65)   -4.1188                   (X_U1.66)    4.1188                       

(X_U1.67)    1.0000                   (X_U1.68)   30.0000                       

(X_U1.69)  -30.0000                   (X_U1.70)  -15.0000                       

(X_U1.71)   15.0000                   (X_U1.72)-105.3E-12                       

(X_U1.73)-105.3E-12                   (X_U1.74)   -4.9664                       

(X_U1.75)   -4.0000                   (X_U1.76)   -4.9900                       

(X_U1.77)   -4.0000                   (X_U1.78)    4.2900                       

(X_U1.79)   -4.0000                   (X_U1.80)   -4.9981                       

(X_U1.81)   -3.0000                   (X_U1.82)   -4.0000                       

(X_U1.83)    5.0000                   (X_U1.84) 999.9E-06                       

(X_U1.85)     .4411                   (X_U1.86)    5.0000                       

(X_U1.87) 18.76E-09                   (X_U1.88)     .4411                       

(X_U1.89)     .4411                   (X_U1.90)    0.0000                       

(X_U1.91)    0.0000                   (X_U1.92) 999.9E-06                       

(X_U1.93)   -4.3000                   (X_U1.94)    3.7500                       

(X_U1.95)     .7867                   (X_U1.96)-636.5E-06                       

(X_U1.97)     .6551                   (X_U1.98)    -.0449                       

(X_U1.99)   25.6380                   (X_U1.100)  -57.8620                  




    VOLTAGE SOURCE CURRENTS
    NAME         CURRENT

    V_VSS        5.950E-04
    V_VDD       -5.949E-04
    V_Vin       -9.958E-13
    X_U1.VEN     1.000E-07
    X_U1.V18    -1.021E-24
    X_U1.V21     5.500E-05
    X_U1.V49     0.000E+00
    X_U1.V50     3.107E-20
    X_U1.V51    -9.900E-05
    X_U1.V52     1.000E-12
    X_U1.V78     2.004E-11
    X_U1.V79     2.004E-11
    X_U1.V115    0.000E+00
    X_U1.V116   -1.250E-12
    X_U1.V119   -4.490E-08
    X_U1.V120   -6.365E-10

    TOTAL POWER DISSIPATION   6.05E-03  WATTS



          JOB CONCLUDED

**** 11/18/25 09:43:43 *** PSpice 24.1.0 (4 September 2024) *** ID# 0 ********

 ** Profile: "PART 1-Step 1_3"  [ c:\users\dosanj5\onedrive - mcmaster university\school files\2025 - 2026\elec 3ej4\lab 5\pspice\3ej


 ****     JOB STATISTICS SUMMARY


******************************************************************************



  Total job time (using Solver 1)   =         .09
