
**** 10/11/25 16:17:34 *** PSpice 24.1.0 (4 September 2024) *** ID# 0 ********

 ** Profile: "PART3-step3_2"  [ C:\Users\dosanj5\OneDrive - McMaster University\School Files\2025 - 2026\ELEC 3EJ4\Lab 3\Pspice\3EJ3 


 ****     CIRCUIT DESCRIPTION


******************************************************************************




** Creating circuit file "step3_2.cir" 
** WARNING: THIS AUTOMATICALLY GENERATED FILE MAY BE OVERWRITTEN BY SUBSEQUENT SIMULATIONS

*Libraries: 
* Profile Libraries :
* Local Libraries :
* From [PSPICE NETLIST] section of C:\Users\dosanj5\AppData\Roaming\SPB_Data\cdssetup\OrCAD_PSpice\24.1.0\PSpice.ini file:
.lib "C:\Users\dosanj5\OneDrive - McMaster University\School Files\2025 - 2026\ELEC 3EJ4\Model Parts\My2N3906.LIB" 
.lib "C:\Users\dosanj5\OneDrive - McMaster University\School Files\2025 - 2026\ELEC 3EJ4\Model Parts\My2N3904.LIB" 
.lib "nom.lib" 

*Analysis directives: 
.AC DEC 101 100Hz 100kHz
.OPTIONS ADVCONV
.PROBE64 V(alias(*)) I(alias(*)) W(alias(*)) D(alias(*)) NOISE(alias(*)) 
.INC "..\PART3.net" 



**** INCLUDING PART3.net ****
* source 3EJ3 LAB 3
Q_Q4         VO N03859 N03783 MY2N3906 
R_R3         N04567 N04519  8.06k TC=0,0 
Q_Q2         VO N05486 VE MY2N3904 
R_R1         N04477 0  76.8k TC=0,0 
Q_Q5         VE N04477 N04519 MY2N3904 
V_VEE         N04567 0 -5V
V_V2         N05486 0 DC 0Vdc AC 1mVac 180
Q_Q1         N03859 N05419 VE MY2N3904 
V_VCC         N03783 0 5V
V_V1         N05419 0 DC 0Vdc AC 1mVac 0
R_R2         N04567 N04477  57.6k TC=0,0 
Q_Q3         N03859 N03859 N03783 MY2N3906 

**** RESUMING step3_2.cir ****
.END

**** 10/11/25 16:17:34 *** PSpice 24.1.0 (4 September 2024) *** ID# 0 ********

 ** Profile: "PART3-step3_2"  [ C:\Users\dosanj5\OneDrive - McMaster University\School Files\2025 - 2026\ELEC 3EJ4\Lab 3\Pspice\3EJ3 


 ****     BJT MODEL PARAMETERS


******************************************************************************




               MY2N3906        MY2N3904        
               PNP             NPN             
       LEVEL    1               1            
          IS    7.755210E-12  126.532000E-12 
          EG    1.05            1.05         
          BF  194.093         206.302        
          NF    1.35509         1.5          
         VAF  156.436           1.000000E+03 
         IKF     .066006         .027222     
         ISE    1.885460E-12    2.307710E-09 
          NE    1.81673         3.31052      
          BR    3.41317        20.6302       
          NR    1.5             2.89609      
         VAR    5.86061         9.39809      
         IKR    1.70599          .272221     
         ISC  764.281000E-12    2.307710E-09 
          NC    1.92376         1.9876       
         ISS    0               0            
          RB    6.48961         5.8376       
         RBM     .1              .634251     
         IRB     .1            50.3624       
          RE  100.000000E-06  100.000000E-06 
          RC    2.45044         2.65711      
         CJE    6.119280E-12    4.642140E-12 
         VJE     .4              .4          
         MJE     .248812         .256227     
         CJC    6.850070E-12    3.769610E-12 
         VJC     .4              .4          
         MJC     .279018         .238109     
        XCJC     .9              .8          
         CJS    0               0            
         VJS     .75             .75         
         MJS     .5              .5          
          FC     .478887         .512134     
          TF  521.843000E-12  419.578000E-12 
         XTF     .932702         .906167     
         VTF    9.1046          8.75418      
         ITF     .010647         .010582     
          TR  430.605000E-09   68.202300E-09 
         XTB     .1              .1          
         XTI    1               1            
          KF    0               0            
          AF    1               1            
          CN    2.2             2.42         
           D     .52             .87         


**** 10/11/25 16:17:34 *** PSpice 24.1.0 (4 September 2024) *** ID# 0 ********

 ** Profile: "PART3-step3_2"  [ C:\Users\dosanj5\OneDrive - McMaster University\School Files\2025 - 2026\ELEC 3EJ4\Lab 3\Pspice\3EJ3 


 ****     SMALL SIGNAL BIAS SOLUTION       TEMPERATURE =   27.000 DEG C


******************************************************************************



 NODE   VOLTAGE     NODE   VOLTAGE     NODE   VOLTAGE     NODE   VOLTAGE


(   VE)    -.5254  (   VO)    1.9925  (N03783)    5.0000 (N03859)    4.4265     

(N04477)   -2.9371 (N04519)   -3.4903 (N04567)   -5.0000 (N05419)    0.0000     

(N05486)    0.0000 




    VOLTAGE SOURCE CURRENTS
    NAME         CURRENT

    V_VEE        2.231E-04
    V_V2        -1.529E-06
    V_VCC       -1.818E-04
    V_V1        -1.529E-06

    TOTAL POWER DISSIPATION   2.02E-03  WATTS



          JOB CONCLUDED

**** 10/11/25 16:17:34 *** PSpice 24.1.0 (4 September 2024) *** ID# 0 ********

 ** Profile: "PART3-step3_2"  [ C:\Users\dosanj5\OneDrive - McMaster University\School Files\2025 - 2026\ELEC 3EJ4\Lab 3\Pspice\3EJ3 


 ****     JOB STATISTICS SUMMARY


******************************************************************************



  Total job time (using Solver 1)   =         .05
