
**** 11/07/25 18:46:53 *** PSpice 24.1.0 (4 September 2024) *** ID# 0 ********

 ** Profile: "SCHEMATIC1-step 1_2"  [ c:\users\dosanj5\onedrive - mcmaster university\school files\2025 - 2026\elec 3ej4\lab 4\pspice


 ****     CIRCUIT DESCRIPTION


******************************************************************************




** Creating circuit file "step 1_2.cir" 
** WARNING: THIS AUTOMATICALLY GENERATED FILE MAY BE OVERWRITTEN BY SUBSEQUENT SIMULATIONS

*Libraries: 
* Profile Libraries :
* Local Libraries :
* From [PSPICE NETLIST] section of C:\Users\dosanj5\AppData\Roaming\SPB_Data\cdssetup\OrCAD_PSpice\24.1.0\PSpice.ini file:
.lib "C:\Users\dosanj5\OneDrive - McMaster University\School Files\2025 - 2026\ELEC 3EJ4\Model Parts\My2N3906.LIB" 
.lib "C:\Users\dosanj5\OneDrive - McMaster University\School Files\2025 - 2026\ELEC 3EJ4\Model Parts\My2N3904.LIB" 
.lib "nom.lib" 

*Analysis directives: 
.AC DEC 101 100Hz 100kHz
.OPTIONS ADVCONV
.PROBE64 V(alias(*)) I(alias(*)) W(alias(*)) D(alias(*)) NOISE(alias(*)) 
.INC "..\SCHEMATIC1.net" 



**** INCLUDING SCHEMATIC1.net ****
* source 3EJ4 LAB 4
Q_Q2         VO1 N06136 N06172 MY2N3904 
R_R1         N06292 0  76.8k TC=0,0 
R_R3         N06378 N06332  8.06k TC=0,0 
Q_Q3         N06040 N06040 N05932 MY2N3906 
V_VEE         N06378 0 -5V
Q_Q1         N06040 N06126 N06172 MY2N3904 
R_R2         N06378 N06292  57.6k TC=0,0 
V_VCC         N05932 0 5V
Q_Q4         VO1 N06040 N05932 MY2N3906 
Q_Q5         N06172 N06292 N06332 MY2N3904 
V_V2         N06136 0 DC 0Vdc AC 1mVac 180
V_V1         N06126 0 DC 0Vdc AC 1mVac 0
R_R5         N06378 N06795  57.6k TC=0,0 
R_R6         N06378 N06833  8.06k TC=0,0 
R_R4         N06795 0  76.8k TC=0,0 
Q_Q6         VO2 N06795 N06833 MY2N3904 
R_R9         N06378 N07138  8.06k TC=0,0 
R_R8         N06378 N07100  57.6k TC=0,0 
Q_Q7         VO N07100 N07138 MY2N3904 
R_R7         N07100 0  76.8k TC=0,0 
Q_Q8         VO2 VO1 N05932 MY2N3906 
Q_Q9         N05932 VO2 VO MY2N3904 
I_Ix         VO 0 DC 0Adc AC 0mAac 

**** RESUMING "step 1_2.cir" ****
.END

**** 11/07/25 18:46:53 *** PSpice 24.1.0 (4 September 2024) *** ID# 0 ********

 ** Profile: "SCHEMATIC1-step 1_2"  [ c:\users\dosanj5\onedrive - mcmaster university\school files\2025 - 2026\elec 3ej4\lab 4\pspice


 ****     BJT MODEL PARAMETERS


******************************************************************************




               MY2N3906        MY2N3904        
               PNP             NPN             
       LEVEL    1               1            
          IS    7.755210E-12  126.532000E-12 
          EG    1.05            1.05         
          BF  194.093         206.302        
          NF    1.35509         1.5          
         VAF  156.436           1.000000E+03 
         IKF     .066006         .027222     
         ISE    1.885460E-12    2.307710E-09 
          NE    1.81673         3.31052      
          BR    3.41317        20.6302       
          NR    1.5             2.89609      
         VAR    5.86061         9.39809      
         IKR    1.70599          .272221     
         ISC  764.281000E-12    2.307710E-09 
          NC    1.92376         1.9876       
         ISS    0               0            
          RB    6.48961         5.8376       
         RBM     .1              .634251     
         IRB     .1            50.3624       
          RE  100.000000E-06  100.000000E-06 
          RC    2.45044         2.65711      
         CJE    6.119280E-12    4.642140E-12 
         VJE     .4              .4          
         MJE     .248812         .256227     
         CJC    6.850070E-12    3.769610E-12 
         VJC     .4              .4          
         MJC     .279018         .238109     
        XCJC     .9              .8          
         CJS    0               0            
         VJS     .75             .75         
         MJS     .5              .5          
          FC     .478887         .512134     
          TF  521.843000E-12  419.578000E-12 
         XTF     .932702         .906167     
         VTF    9.1046          8.75418      
         ITF     .010647         .010582     
          TR  430.605000E-09   68.202300E-09 
         XTB     .1              .1          
         XTI    1               1            
          KF    0               0            
          AF    1               1            
          CN    2.2             2.42         
           D     .52             .87         


**** 11/07/25 18:46:53 *** PSpice 24.1.0 (4 September 2024) *** ID# 0 ********

 ** Profile: "SCHEMATIC1-step 1_2"  [ c:\users\dosanj5\onedrive - mcmaster university\school files\2025 - 2026\elec 3ej4\lab 4\pspice


 ****     SMALL SIGNAL BIAS SOLUTION       TEMPERATURE =   27.000 DEG C


******************************************************************************



 NODE   VOLTAGE     NODE   VOLTAGE     NODE   VOLTAGE     NODE   VOLTAGE


(   VO)    3.9936  (  VO1)    4.4002  (  VO2)    4.5465  (N05932)    5.0000     

(N06040)    4.4265 (N06126)    0.0000 (N06136)    0.0000 (N06172)    -.5254     

(N06292)   -2.9371 (N06332)   -3.4903 (N06378)   -5.0000 (N06795)   -2.9368     

(N06833)   -3.4899 (N07100)   -2.9368 (N07138)   -3.4899 




    VOLTAGE SOURCE CURRENTS
    NAME         CURRENT

    V_VEE        6.695E-04
    V_VCC       -5.517E-04
    V_V2        -1.528E-06
    V_V1        -1.528E-06

    TOTAL POWER DISSIPATION   6.11E-03  WATTS



          JOB CONCLUDED

**** 11/07/25 18:46:53 *** PSpice 24.1.0 (4 September 2024) *** ID# 0 ********

 ** Profile: "SCHEMATIC1-step 1_2"  [ c:\users\dosanj5\onedrive - mcmaster university\school files\2025 - 2026\elec 3ej4\lab 4\pspice


 ****     JOB STATISTICS SUMMARY


******************************************************************************



  Total job time (using Solver 1)   =         .05
