
**** 09/27/25 20:59:08 *** PSpice 24.1.0 (4 September 2024) *** ID# 0 ********

 ** Profile: "PART3-step3-3"  [ C:\Users\dosanj5\OneDrive - McMaster University\School Files\2025 - 2026\ELEC 3EJ4\Lab 2\Pspice\3EJ4 


 ****     CIRCUIT DESCRIPTION


******************************************************************************




** Creating circuit file "step3-3.cir" 
** WARNING: THIS AUTOMATICALLY GENERATED FILE MAY BE OVERWRITTEN BY SUBSEQUENT SIMULATIONS

*Libraries: 
* Profile Libraries :
* Local Libraries :
* From [PSPICE NETLIST] section of C:\Users\dosanj5\AppData\Roaming\SPB_Data\cdssetup\OrCAD_PSpice\24.1.0\PSpice.ini file:
.lib "C:\Users\dosanj5\OneDrive - McMaster University\School Files\2025 - 2026\ELEC 3EJ4\Model Parts\My2N3906.LIB" 
.lib "C:\Users\dosanj5\OneDrive - McMaster University\School Files\2025 - 2026\ELEC 3EJ4\Model Parts\My2N3904.LIB" 
.lib "nom.lib" 

*Analysis directives: 
.AC DEC 101 100Hz 10MegHz
.OPTIONS ADVCONV
.PROBE64 V(alias(*)) I(alias(*)) W(alias(*)) D(alias(*)) NOISE(alias(*)) 
.INC "..\PART3.net" 



**** INCLUDING PART3.net ****
* source 3EJ4 LAB 2
R_R4         N03807 N03711  8.25k TC=0,0 
V_VEE         N04087 0 -5V
V_VCC         N03711 0 5V
V_V1         N03873 0 DC 0V AC 1mV 0
R_R5         VO N03711  8.25k TC=0,0 
Q_Q2         VO N03885 VE MY2N3904 
R_R2         N04087 N04001  57.6k TC=0,0 
Q_Q3         VE N04001 N04041 MY2N3904 
Q_Q1         N03807 N03873 VE MY2N3904 
R_R1         N04001 0  76.8k TC=0,0 
R_R3         N04087 N04041  8.06k TC=0,0 
V_V2         N03885 0 DC 0V AC 1mV 180

**** RESUMING step3-3.cir ****
.END

**** 09/27/25 20:59:08 *** PSpice 24.1.0 (4 September 2024) *** ID# 0 ********

 ** Profile: "PART3-step3-3"  [ C:\Users\dosanj5\OneDrive - McMaster University\School Files\2025 - 2026\ELEC 3EJ4\Lab 2\Pspice\3EJ4 


 ****     BJT MODEL PARAMETERS


******************************************************************************




               MY2N3904        
               NPN             
       LEVEL    1            
          IS  126.532000E-12 
          EG    1.05         
          BF  206.302        
          NF    1.5          
         VAF    1.000000E+03 
         IKF     .027222     
         ISE    2.307710E-09 
          NE    3.31052      
          BR   20.6302       
          NR    2.89609      
         VAR    9.39809      
         IKR     .272221     
         ISC    2.307710E-09 
          NC    1.9876       
         ISS    0            
          RB    5.8376       
         RBM     .634251     
         IRB   50.3624       
          RE  100.000000E-06 
          RC    2.65711      
         CJE    4.642140E-12 
         VJE     .4          
         MJE     .256227     
         CJC    3.769610E-12 
         VJC     .4          
         MJC     .238109     
        XCJC     .8          
         CJS    0            
         VJS     .75         
         MJS     .5          
          FC     .512134     
          TF  419.578000E-12 
         XTF     .906167     
         VTF    8.75418      
         ITF     .010582     
          TR   68.202300E-09 
         XTB     .1          
         XTI    1            
          KF    0            
          AF    1            
          CN    2.42         
           D     .87         


**** 09/27/25 20:59:08 *** PSpice 24.1.0 (4 September 2024) *** ID# 0 ********

 ** Profile: "PART3-step3-3"  [ C:\Users\dosanj5\OneDrive - McMaster University\School Files\2025 - 2026\ELEC 3EJ4\Lab 2\Pspice\3EJ4 


 ****     SMALL SIGNAL BIAS SOLUTION       TEMPERATURE =   27.000 DEG C


******************************************************************************



 NODE   VOLTAGE     NODE   VOLTAGE     NODE   VOLTAGE     NODE   VOLTAGE


(   VE)    -.5254  (   VO)    4.2500  (N03711)    5.0000 (N03807)    4.2500     

(N03873)    0.0000 (N03885)    0.0000 (N04001)   -2.9371 (N04041)   -3.4903     

(N04087)   -5.0000 




    VOLTAGE SOURCE CURRENTS
    NAME         CURRENT

    V_VEE        2.231E-04
    V_VCC       -1.818E-04
    V_V1        -1.528E-06
    V_V2        -1.528E-06

    TOTAL POWER DISSIPATION   2.02E-03  WATTS



          JOB CONCLUDED

**** 09/27/25 20:59:08 *** PSpice 24.1.0 (4 September 2024) *** ID# 0 ********

 ** Profile: "PART3-step3-3"  [ C:\Users\dosanj5\OneDrive - McMaster University\School Files\2025 - 2026\ELEC 3EJ4\Lab 2\Pspice\3EJ4 


 ****     JOB STATISTICS SUMMARY


******************************************************************************



  Total job time (using Solver 1)   =         .06
