
**** 11/08/25 18:06:24 *** PSpice 24.1.0 (4 September 2024) *** ID# 0 ********

 ** Profile: "PART 2-step2_3"  [ c:\users\dosanj5\onedrive - mcmaster university\school files\2025 - 2026\elec 3ej4\lab 4\pspice\3ej4


 ****     CIRCUIT DESCRIPTION


******************************************************************************




** Creating circuit file "step2_3.cir" 
** WARNING: THIS AUTOMATICALLY GENERATED FILE MAY BE OVERWRITTEN BY SUBSEQUENT SIMULATIONS

*Libraries: 
* Profile Libraries :
* Local Libraries :
.LIB "C:/Users/dosanj5/OneDrive - McMaster University/School Files/2025 - 2026/ELEC 3EJ4/Model Parts/Op-Amp TLV2371.LIB" 
* From [PSPICE NETLIST] section of C:\Users\dosanj5\AppData\Roaming\SPB_Data\cdssetup\OrCAD_PSpice\24.1.0\PSpice.ini file:
.lib "C:\Users\dosanj5\OneDrive - McMaster University\School Files\2025 - 2026\ELEC 3EJ4\Model Parts\Op-Amp TLV2371.LIB" 
.lib "C:\Users\dosanj5\OneDrive - McMaster University\School Files\2025 - 2026\ELEC 3EJ4\Model Parts\My2N3906.LIB" 
.lib "C:\Users\dosanj5\OneDrive - McMaster University\School Files\2025 - 2026\ELEC 3EJ4\Model Parts\My2N3904.LIB" 
.lib "nom.lib" 

*Analysis directives: 
.TRAN  0 2.5ms 0 1us 
.OPTIONS ADVCONV
.AUTOCONVERGE ITL1=1000 ITL2=1000 ITL4=1000 RELTOL=0.05 ABSTOL=1.0E-6 VNTOL=.001 PIVTOL=1.0E-10 
.PROBE64 V(alias(*)) I(alias(*)) W(alias(*)) D(alias(*)) NOISE(alias(*)) 
.INC "..\PART 2.net" 



**** INCLUDING "PART 2.net" ****
* source 3EJ4 LAB 4
R_R2         N00150 VOUT  240k TC=0,0 
R_R1         0 N00150  100k TC=0,0 
R_R3         N00366 VOUT  4.02k TC=0,0 
C_C2         N00315 N00366  1n  TC=0,0 
R_R4         0 N00315  4.02k TC=0,0 
C_C1         0 N00366  1n  TC=0,0 
V_VDD         N00783 0 5V
V_VSS         N00934 0 -5V
X_U1         N00315 N00150 N00783 N00934 VOUT TLV2371

**** RESUMING step2_3.cir ****
.END

**** 11/08/25 18:06:24 *** PSpice 24.1.0 (4 September 2024) *** ID# 0 ********

 ** Profile: "PART 2-step2_3"  [ c:\users\dosanj5\onedrive - mcmaster university\school files\2025 - 2026\elec 3ej4\lab 4\pspice\3ej4


 ****     Diode MODEL PARAMETERS


******************************************************************************




               X_U1.DVN        X_U1.DD         X_U1.DIN        
          IS  100.000000E-18   10.000000E-15   10.000000E-15 
          KF    8.000000E-12                                 


**** 11/08/25 18:06:24 *** PSpice 24.1.0 (4 September 2024) *** ID# 0 ********

 ** Profile: "PART 2-step2_3"  [ c:\users\dosanj5\onedrive - mcmaster university\school files\2025 - 2026\elec 3ej4\lab 4\pspice\3ej4


 ****     BJT MODEL PARAMETERS


******************************************************************************




               X_U1.QLN        X_U1.QLP        
               NPN             PNP             
       LEVEL    1               1            
          IS  100.000000E-18  100.000000E-18 
          BF  100             100            
          NF    1               1            
          BR    1               1            
          NR    1               1            
         ISS    0               0            
          RE    0               0            
          RC    0               0            
         CJE    0               0            
         VJE     .75             .75         
         CJC    0               0            
         VJC     .75             .75         
         MJC     .33             .33         
        XCJC    1               1            
         CJS    0               0            
         VJS     .75             .75         
          KF    0               0            
          AF    1               1            
          CN    2.42            2.2          
           D     .87             .52         


**** 11/08/25 18:06:24 *** PSpice 24.1.0 (4 September 2024) *** ID# 0 ********

 ** Profile: "PART 2-step2_3"  [ c:\users\dosanj5\onedrive - mcmaster university\school files\2025 - 2026\elec 3ej4\lab 4\pspice\3ej4


 ****     Junction FET MODEL PARAMETERS


******************************************************************************




               X_U1.JNC        
               NJF             
         VTO   -2            
        BETA  100.000000E-06 


**** 11/08/25 18:06:24 *** PSpice 24.1.0 (4 September 2024) *** ID# 0 ********

 ** Profile: "PART 2-step2_3"  [ c:\users\dosanj5\onedrive - mcmaster university\school files\2025 - 2026\elec 3ej4\lab 4\pspice\3ej4


 ****     MOSFET MODEL PARAMETERS


******************************************************************************




               X_U1.POUT       X_U1.NOUT       X_U1.PIN        X_U1.NIN        
               PMOS            NMOS            PMOS            NMOS            
       LEVEL    1               1               1               1            
           L  100.000000E-06  100.000000E-06  100.000000E-06  100.000000E-06 
           W  100.000000E-06  100.000000E-06  100.000000E-06  100.000000E-06 
         VTO    -.7              .7             -.7              .7          
          KP  200.000000E-06  200.000000E-06  200.000000E-06  200.000000E-06 
       GAMMA    0               0               0               0            
         PHI     .6              .6              .6              .6          
      LAMBDA    0               0               0               0            
          IS   10.000000E-15   10.000000E-15   10.000000E-15   10.000000E-15 
          JS    0               0               0               0            
          PB     .8              .8              .8              .8          
        PBSW     .8              .8              .8              .8          
          CJ    0               0               0               0            
        CJSW    0               0               0               0            
        CGSO    0               0               0               0            
        CGDO    0               0               0               0            
        CGBO    0               0               0               0            
         TOX    0               0               0               0            
          XJ    0               0               0               0            
       UCRIT   10.000000E+03   10.000000E+03   10.000000E+03   10.000000E+03 
      DIOMOD    1               1               1               1            
         VFB    0               0               0               0            
        LETA    0               0               0               0            
        WETA    0               0               0               0            
          U0    0               0               0               0            
        TEMP    0               0               0               0            
         VDD    5               5               5               5            
       XPART    0               0               0               0            


               X_U1.NIQS       X_U1.NEN        X_U1.PEN        X_U1.PSW        
               NMOS            NMOS            PMOS            PMOS            
       LEVEL    1               1               1               1            
           L  100.000000E-06  100.000000E-06  100.000000E-06  100.000000E-06 
           W  100.000000E-06  100.000000E-06  100.000000E-06  100.000000E-06 
         VTO     .7              .5             -.7            -7.5          
          KP  200.000000E-06  200.000000E-06  200.000000E-06  200.000000E-06 
       GAMMA    0               0               0               0            
         PHI     .6              .6              .6              .6          
      LAMBDA    0               0               0               0            
          IS    1.000000E-18    1.000000E-18    1.000000E-18    1.000000E-18 
          JS    0               0               0               0            
          PB     .8              .8              .8              .8          
        PBSW     .8              .8              .8              .8          
          CJ    0               0               0               0            
        CJSW    0               0               0               0            
        CGSO    0               0               0               0            
        CGDO    0               0               0               0            
        CGBO    0               0               0               0            
         TOX    0               0               0               0            
          XJ    0               0               0               0            
       UCRIT   10.000000E+03   10.000000E+03   10.000000E+03   10.000000E+03 
      DIOMOD    1               1               1               1            
         VFB    0               0               0               0            
        LETA    0               0               0               0            
        WETA    0               0               0               0            
          U0    0               0               0               0            
        TEMP    0               0               0               0            
         VDD    5               5               5               5            
       XPART    0               0               0               0            


               X_U1.NSW        
               NMOS            
       LEVEL    1            
           L  100.000000E-06 
           W  100.000000E-06 
         VTO    7.5          
          KP  200.000000E-06 
       GAMMA    0            
         PHI     .6          
      LAMBDA    0            
          IS    1.000000E-18 
          JS    0            
          PB     .8          
        PBSW     .8          
          CJ    0            
        CJSW    0            
        CGSO    0            
        CGDO    0            
        CGBO    0            
         TOX    0            
          XJ    0            
       UCRIT   10.000000E+03 
      DIOMOD    1            
         VFB    0            
        LETA    0            
        WETA    0            
          U0    0            
        TEMP    0            
         VDD    5            
       XPART    0            


**** 11/08/25 18:06:24 *** PSpice 24.1.0 (4 September 2024) *** ID# 0 ********

 ** Profile: "PART 2-step2_3"  [ c:\users\dosanj5\onedrive - mcmaster university\school files\2025 - 2026\elec 3ej4\lab 4\pspice\3ej4


 ****     INITIAL TRANSIENT SOLUTION       TEMPERATURE =   27.000 DEG C


******************************************************************************



 NODE   VOLTAGE     NODE   VOLTAGE     NODE   VOLTAGE     NODE   VOLTAGE


( VOUT) 627.7E-09  (N00150) 114.3E-09 (N00315)-4.003E-09 (N00366) 627.7E-09     

(N00783)    5.0000 (N00934)   -5.0000 (X_U1.5)   -3.0000 (X_U1.7)   -4.2464     

(X_U1.8)   -4.9997 (X_U1.9)   -5.0000 (X_U1.10)     .7866                       

(X_U1.11)     .7867                   (X_U1.12)     .7866                       

(X_U1.13)   -4.9997                   (X_U1.14)    4.9997                       

(X_U1.15)    4.9997                   (X_U1.16)    4.9997                       

(X_U1.17)   -4.9997                   (X_U1.18)-694.3E-12                       

(X_U1.19)-694.3E-12                   (X_U1.20)    4.9997                       

(X_U1.21)    5.0000                   (X_U1.22)   -4.9997                       

(X_U1.23) 627.7E-09                   (X_U1.24)     .5955                       

(X_U1.25)     .5955                   (X_U1.26)     .7147                       

(X_U1.27)     .7147                   (X_U1.28) 114.3E-09                       

(X_U1.29)-4.003E-09                   (X_U1.30)    5.0000                       

(X_U1.31)   -5.0000                   (X_U1.32) 55.16E-09                       

(X_U1.33) 55.16E-09                   (X_U1.34) 500.0E-06                       

(X_U1.35)-500.0E-06                   (X_U1.36) 5.516E-12                       

(X_U1.37)-4.003E-09                   (X_U1.38) 114.3E-09                       

(X_U1.39)-4.003E-09                   (X_U1.40)-400.0E-06                       

(X_U1.41)    0.0000                   (X_U1.42)-86.63E-06                       

(X_U1.43)   -4.1188                   (X_U1.44) 87.89E-06                       

(X_U1.45)    4.1188                   (X_U1.46)    4.1265                       

(X_U1.47)   -4.9450                   (X_U1.48)-4.003E-09                       

(X_U1.49)   -4.9450                   (X_U1.50) 114.3E-09                       

(X_U1.51)   -4.1265                   (X_U1.52)    4.1188                       

(X_U1.53)   -4.1188                   (X_U1.54)-150.0E-09                       

(X_U1.55)    4.2464                   (X_U1.56)-4.003E-09                       

(X_U1.57)     .7867                   (X_U1.58)    4.2188                       

(X_U1.59)    5.0000                   (X_U1.60)   -5.0000                       

(X_U1.61) 114.3E-09                   (X_U1.62)-150.0E-09                       

(X_U1.63)    3.6092                   (X_U1.64)   -3.6092                       

(X_U1.65)   -4.1188                   (X_U1.66)    4.1188                       

(X_U1.67)    1.0000                   (X_U1.68)   30.0000                       

(X_U1.69)  -30.0000                   (X_U1.70)  -15.0000                       

(X_U1.71)   15.0000                   (X_U1.72)-231.4E-12                       

(X_U1.73)-231.4E-12                   (X_U1.74)   -4.9664                       

(X_U1.75)   -4.0000                   (X_U1.76)   -4.9900                       

(X_U1.77)   -4.0000                   (X_U1.78)    4.2900                       

(X_U1.79)   -4.0000                   (X_U1.80)   -4.9981                       

(X_U1.81)   -3.0000                   (X_U1.82)   -4.0000                       

(X_U1.83)    5.0000                   (X_U1.84)     .0010                       

(X_U1.85)     .4411                   (X_U1.86)    5.0000                       

(X_U1.87) 114.3E-09                   (X_U1.88)     .4411                       

(X_U1.89)     .4411                   (X_U1.90)    0.0000                       

(X_U1.91)    0.0000                   (X_U1.92)     .0010                       

(X_U1.93)   -4.3000                   (X_U1.94)    3.7500                       

(X_U1.95)     .7867                   (X_U1.96)-636.5E-06                       

(X_U1.97)     .6551                   (X_U1.98)    -.0449                       

(X_U1.99)   25.6380                   (X_U1.100)  -57.8620                  




    VOLTAGE SOURCE CURRENTS
    NAME         CURRENT

    V_VDD       -5.949E-04
    V_VSS        5.950E-04
    X_U1.VEN     1.000E-07
    X_U1.V18     5.520E-24
    X_U1.V21     5.500E-05
    X_U1.V49     0.000E+00
    X_U1.V50     3.069E-20
    X_U1.V51    -9.900E-05
    X_U1.V52     1.000E-12
    X_U1.V78     2.004E-11
    X_U1.V79     2.004E-11
    X_U1.V115   -1.323E-23
    X_U1.V116   -1.250E-12
    X_U1.V119   -4.490E-08
    X_U1.V120   -6.365E-10

    TOTAL POWER DISSIPATION   6.05E-03  WATTS



          JOB CONCLUDED
 AutoConverge Simulator Options
 ITL1 = 150
 ITL2 = 20
 ITL4 = 100
 RELTOL = 0.001
 ABSTOL = 1e-12
 VNTOL = 1e-06
 PIVTOL = 1e-13

**** 11/08/25 18:06:24 *** PSpice 24.1.0 (4 September 2024) *** ID# 0 ********

 ** Profile: "PART 2-step2_3"  [ c:\users\dosanj5\onedrive - mcmaster university\school files\2025 - 2026\elec 3ej4\lab 4\pspice\3ej4


 ****     JOB STATISTICS SUMMARY


******************************************************************************



  Total job time (using Solver 1)   =        3.47
