
**** 11/07/25 20:26:50 *** PSpice 24.1.0 (4 September 2024) *** ID# 0 ********

 ** Profile: "PART 1B-step1_6"  [ c:\users\dosanj5\onedrive - mcmaster university\school files\2025 - 2026\elec 3ej4\lab 4\pspice\3ej


 ****     CIRCUIT DESCRIPTION


******************************************************************************




** Creating circuit file "step1_6.cir" 
** WARNING: THIS AUTOMATICALLY GENERATED FILE MAY BE OVERWRITTEN BY SUBSEQUENT SIMULATIONS

*Libraries: 
* Profile Libraries :
* Local Libraries :
* From [PSPICE NETLIST] section of C:\Users\dosanj5\AppData\Roaming\SPB_Data\cdssetup\OrCAD_PSpice\24.1.0\PSpice.ini file:
.lib "C:\Users\dosanj5\OneDrive - McMaster University\School Files\2025 - 2026\ELEC 3EJ4\Model Parts\My2N3906.LIB" 
.lib "C:\Users\dosanj5\OneDrive - McMaster University\School Files\2025 - 2026\ELEC 3EJ4\Model Parts\My2N3904.LIB" 
.lib "nom.lib" 

*Analysis directives: 
.TRAN  0 6ms 0 25us 
.OPTIONS ADVCONV
.PROBE64 V(alias(*)) I(alias(*)) W(alias(*)) D(alias(*)) NOISE(alias(*)) 
.INC "..\PART 1B.net" 



**** INCLUDING "PART 1B.net" ****
* source 3EJ4 LAB 4
R_RL         0 VO  240k TC=0,0 
R_RF2         VO N09231  100k TC=0,0 
Q_Q6         N09169 N09561 N09689 MY2N3904 
Q_Q9         N08977 N09169 VO MY2N3904 
Q_Q8         N09169 N09117 N08977 MY2N3906 
R_R6         N09829 N09689  8.06k TC=0,0 
R_R1         N09557 0  76.8k TC=0,0 
R_RF1         0 N09231  100k TC=0,0 
Q_Q1         N09101 N09231 N09273 MY2N3904 
R_R8         N09829 N09565  57.6k TC=0,0 
R_R4         N09561 0  76.8k TC=0,0 
Q_Q3         N09101 N09101 N08977 MY2N3906 
Q_Q5         N09273 N09557 N09683 MY2N3904 
R_R9         N09829 N09695  8.06k TC=0,0 
R_R7         N09565 0  76.8k TC=0,0 
Q_Q7         VO N09565 N09695 MY2N3904 
R_R2         N09829 N09557  57.6k TC=0,0 
V_VEE         N09829 0 -5V
V_VCC         N08977 0 5V
R_R3         N09829 N09683  8.06k TC=0,0 
Q_Q2         N09117 N09237 N09273 MY2N3904 
V_V1         N09237 0 DC 0 AC 1m
+SIN 0 1m 1k 0 0 0
Q_Q4         N09117 N09101 N08977 MY2N3906 
R_R5         N09829 N09561  57.6k TC=0,0 

**** RESUMING step1_6.cir ****
.END

**** 11/07/25 20:26:50 *** PSpice 24.1.0 (4 September 2024) *** ID# 0 ********

 ** Profile: "PART 1B-step1_6"  [ c:\users\dosanj5\onedrive - mcmaster university\school files\2025 - 2026\elec 3ej4\lab 4\pspice\3ej


 ****     BJT MODEL PARAMETERS


******************************************************************************




               MY2N3906        MY2N3904        
               PNP             NPN             
       LEVEL    1               1            
          IS    7.755210E-12  126.532000E-12 
          EG    1.05            1.05         
          BF  194.093         206.302        
          NF    1.35509         1.5          
         VAF  156.436           1.000000E+03 
         IKF     .066006         .027222     
         ISE    1.885460E-12    2.307710E-09 
          NE    1.81673         3.31052      
          BR    3.41317        20.6302       
          NR    1.5             2.89609      
         VAR    5.86061         9.39809      
         IKR    1.70599          .272221     
         ISC  764.281000E-12    2.307710E-09 
          NC    1.92376         1.9876       
         ISS    0               0            
          RB    6.48961         5.8376       
         RBM     .1              .634251     
         IRB     .1            50.3624       
          RE  100.000000E-06  100.000000E-06 
          RC    2.45044         2.65711      
         CJE    6.119280E-12    4.642140E-12 
         VJE     .4              .4          
         MJE     .248812         .256227     
         CJC    6.850070E-12    3.769610E-12 
         VJC     .4              .4          
         MJC     .279018         .238109     
        XCJC     .9              .8          
         CJS    0               0            
         VJS     .75             .75         
         MJS     .5              .5          
          FC     .478887         .512134     
          TF  521.843000E-12  419.578000E-12 
         XTF     .932702         .906167     
         VTF    9.1046          8.75418      
         ITF     .010647         .010582     
          TR  430.605000E-09   68.202300E-09 
         XTB     .1              .1          
         XTI    1               1            
          KF    0               0            
          AF    1               1            
          CN    2.2             2.42         
           D     .52             .87         


**** 11/07/25 20:26:50 *** PSpice 24.1.0 (4 September 2024) *** ID# 0 ********

 ** Profile: "PART 1B-step1_6"  [ c:\users\dosanj5\onedrive - mcmaster university\school files\2025 - 2026\elec 3ej4\lab 4\pspice\3ej


 ****     INITIAL TRANSIENT SOLUTION       TEMPERATURE =   27.000 DEG C


******************************************************************************



 NODE   VOLTAGE     NODE   VOLTAGE     NODE   VOLTAGE     NODE   VOLTAGE


(   VO)     .1529  (N08977)    5.0000 (N09101)    4.4265 (N09117)    4.4012     

(N09169)     .7060 (N09231) 25.25E-06 (N09237)    0.0000 (N09273)    -.5253     

(N09557)   -2.9371 (N09561)   -2.9370 (N09565)   -2.9370 (N09683)   -3.4903     

(N09689)   -3.4902 (N09695)   -3.4903 (N09829)   -5.0000 




    VOLTAGE SOURCE CURRENTS
    NAME         CURRENT

    V_VEE        6.694E-04
    V_VCC       -5.538E-04
    V_V1        -1.527E-06

    TOTAL POWER DISSIPATION   6.12E-03  WATTS



          JOB CONCLUDED

**** 11/07/25 20:26:50 *** PSpice 24.1.0 (4 September 2024) *** ID# 0 ********

 ** Profile: "PART 1B-step1_6"  [ c:\users\dosanj5\onedrive - mcmaster university\school files\2025 - 2026\elec 3ej4\lab 4\pspice\3ej


 ****     JOB STATISTICS SUMMARY


******************************************************************************



  Total job time (using Solver 1)   =         .08
