
**** 09/27/25 20:13:34 *** PSpice 24.1.0 (4 September 2024) *** ID# 0 ********

 ** Profile: "PART 1B-bias"  [ C:\Users\dosanj5\OneDrive - McMaster University\School Files\2025 - 2026\ELEC 3EJ4\Lab 2\Pspice\3ej4 l


 ****     CIRCUIT DESCRIPTION


******************************************************************************




** Creating circuit file "bias.cir" 
** WARNING: THIS AUTOMATICALLY GENERATED FILE MAY BE OVERWRITTEN BY SUBSEQUENT SIMULATIONS

*Libraries: 
* Profile Libraries :
* Local Libraries :
* From [PSPICE NETLIST] section of C:\Users\dosanj5\AppData\Roaming\SPB_Data\cdssetup\OrCAD_PSpice\24.1.0\PSpice.ini file:
.lib "C:\Users\dosanj5\OneDrive - McMaster University\School Files\2025 - 2026\ELEC 3EJ4\Model Parts\My2N3906.LIB" 
.lib "C:\Users\dosanj5\OneDrive - McMaster University\School Files\2025 - 2026\ELEC 3EJ4\Model Parts\My2N3904.LIB" 
.lib "nom.lib" 

*Analysis directives: 
.OP
.OPTIONS ADVCONV
.PROBE64 V(alias(*)) I(alias(*)) W(alias(*)) D(alias(*)) NOISE(alias(*)) 
.INC "..\PART 1B.net" 



**** INCLUDING "PART 1B.net" ****
* source 3EJ4 LAB 2
V_VEE         N00598 0 -5V
R_R2         N00598 VB  57.6k TC=0,0 
Q_Q1         VO VB VE MY2N3904 
R_R3         N00598 VE  8.06k TC=0,0 
R_R1         VB 0  76.8k TC=0,0 
V_Vsig         N01594 0 DC 4.39V AC 0V 0
Q_Q2         VO N01594 N02137 MY2N3906 
V_VCC         N02137 0 5V

**** RESUMING bias.cir ****
.END

**** 09/27/25 20:13:34 *** PSpice 24.1.0 (4 September 2024) *** ID# 0 ********

 ** Profile: "PART 1B-bias"  [ C:\Users\dosanj5\OneDrive - McMaster University\School Files\2025 - 2026\ELEC 3EJ4\Lab 2\Pspice\3ej4 l


 ****     BJT MODEL PARAMETERS


******************************************************************************




               MY2N3906        MY2N3904        
               PNP             NPN             
       LEVEL    1               1            
          IS    7.755210E-12  126.532000E-12 
          EG    1.05            1.05         
          BF  194.093         206.302        
          NF    1.35509         1.5          
         VAF  156.436           1.000000E+03 
         IKF     .066006         .027222     
         ISE    1.885460E-12    2.307710E-09 
          NE    1.81673         3.31052      
          BR    3.41317        20.6302       
          NR    1.5             2.89609      
         VAR    5.86061         9.39809      
         IKR    1.70599          .272221     
         ISC  764.281000E-12    2.307710E-09 
          NC    1.92376         1.9876       
         ISS    0               0            
          RB    6.48961         5.8376       
         RBM     .1              .634251     
         IRB     .1            50.3624       
          RE  100.000000E-06  100.000000E-06 
          RC    2.45044         2.65711      
         CJE    6.119280E-12    4.642140E-12 
         VJE     .4              .4          
         MJE     .248812         .256227     
         CJC    6.850070E-12    3.769610E-12 
         VJC     .4              .4          
         MJC     .279018         .238109     
        XCJC     .9              .8          
         CJS    0               0            
         VJS     .75             .75         
         MJS     .5              .5          
          FC     .478887         .512134     
          TF  521.843000E-12  419.578000E-12 
         XTF     .932702         .906167     
         VTF    9.1046          8.75418      
         ITF     .010647         .010582     
          TR  430.605000E-09   68.202300E-09 
         XTB     .1              .1          
         XTI    1               1            
          KF    0               0            
          AF    1               1            
          CN    2.2             2.42         
           D     .52             .87         


**** 09/27/25 20:13:34 *** PSpice 24.1.0 (4 September 2024) *** ID# 0 ********

 ** Profile: "PART 1B-bias"  [ C:\Users\dosanj5\OneDrive - McMaster University\School Files\2025 - 2026\ELEC 3EJ4\Lab 2\Pspice\3ej4 l


 ****     SMALL SIGNAL BIAS SOLUTION       TEMPERATURE =   27.000 DEG C


******************************************************************************



 NODE   VOLTAGE     NODE   VOLTAGE     NODE   VOLTAGE     NODE   VOLTAGE


(   VB)   -2.9368  (   VE)   -3.4898  (   VO)    4.9404  (N00598)   -5.0000     

(N01594)    4.3900 (N02137)    5.0000 




    VOLTAGE SOURCE CURRENTS
    NAME         CURRENT

    V_VEE        2.232E-04
    V_Vsig       5.429E-05
    V_VCC       -2.392E-04

    TOTAL POWER DISSIPATION   2.07E-03  WATTS


**** 09/27/25 20:13:34 *** PSpice 24.1.0 (4 September 2024) *** ID# 0 ********

 ** Profile: "PART 1B-bias"  [ C:\Users\dosanj5\OneDrive - McMaster University\School Files\2025 - 2026\ELEC 3EJ4\Lab 2\Pspice\3ej4 l


 ****     OPERATING POINT INFORMATION      TEMPERATURE =   27.000 DEG C


******************************************************************************






**** BIPOLAR JUNCTION TRANSISTORS


NAME         Q_Q1        Q_Q2      
MODEL        MY2N3904    MY2N3906  
IB           2.42E-06   -5.43E-05 
IC           1.85E-04   -1.85E-04 
VBE          5.53E-01   -6.10E-01 
VBC         -7.88E+00   -5.50E-01 
VCE          8.43E+00   -5.96E-02 
BETADC       7.64E+01    3.41E+00 
GM           4.71E-03    6.71E-03 
RPI          2.40E+04    1.72E+04 
RX           5.84E+00    6.48E+00 
RO           5.13E+06    3.85E+03 
CBE          1.01E-11    1.44E-11 
CBC          1.47E-12    1.36E-10 
CJS          0.00E+00    0.00E+00 
BETAAC       1.13E+02    1.15E+02 
CBX/CBX2     3.66E-13    1.22E-12 
FT/FT2       6.28E+07    7.05E+06 



          JOB CONCLUDED

**** 09/27/25 20:13:34 *** PSpice 24.1.0 (4 September 2024) *** ID# 0 ********

 ** Profile: "PART 1B-bias"  [ C:\Users\dosanj5\OneDrive - McMaster University\School Files\2025 - 2026\ELEC 3EJ4\Lab 2\Pspice\3ej4 l


 ****     JOB STATISTICS SUMMARY


******************************************************************************



  Total job time (using Solver 1)   =        0.00
