
**** 09/27/25 20:24:50 *** PSpice 24.1.0 (4 September 2024) *** ID# 0 ********

 ** Profile: "PART 1B-step1-7"  [ C:\Users\dosanj5\OneDrive - McMaster University\School Files\2025 - 2026\ELEC 3EJ4\Lab 2\Pspice\3EJ


 ****     CIRCUIT DESCRIPTION


******************************************************************************




** Creating circuit file "step1-7.cir" 
** WARNING: THIS AUTOMATICALLY GENERATED FILE MAY BE OVERWRITTEN BY SUBSEQUENT SIMULATIONS

*Libraries: 
* Profile Libraries :
* Local Libraries :
* From [PSPICE NETLIST] section of C:\Users\dosanj5\AppData\Roaming\SPB_Data\cdssetup\OrCAD_PSpice\24.1.0\PSpice.ini file:
.lib "C:\Users\dosanj5\OneDrive - McMaster University\School Files\2025 - 2026\ELEC 3EJ4\Model Parts\My2N3906.LIB" 
.lib "C:\Users\dosanj5\OneDrive - McMaster University\School Files\2025 - 2026\ELEC 3EJ4\Model Parts\My2N3904.LIB" 
.lib "nom.lib" 

*Analysis directives: 
.AC DEC 101 100Hz 1MegHz
.OP
.OPTIONS ADVCONV
.PROBE64 V(alias(*)) I(alias(*)) W(alias(*)) D(alias(*)) NOISE(alias(*)) 
.INC "..\PART 1B.net" 



**** INCLUDING "PART 1B.net" ****
* source 3EJ4 LAB 2
V_VEE         N00598 0 -5V
R_R2         N00598 VB  57.6k TC=0,0 
Q_Q1         VO VB VE MY2N3904 
R_R3         N00598 VE  8.06k TC=0,0 
R_R1         VB 0  76.8k TC=0,0 
V_Vsig         N01594 0 DC 4.4018V AC 1mV 0
Q_Q2         VO N01594 N02137 MY2N3906 
V_VCC         N02137 0 5V

**** RESUMING step1-7.cir ****
.END

**** 09/27/25 20:24:50 *** PSpice 24.1.0 (4 September 2024) *** ID# 0 ********

 ** Profile: "PART 1B-step1-7"  [ C:\Users\dosanj5\OneDrive - McMaster University\School Files\2025 - 2026\ELEC 3EJ4\Lab 2\Pspice\3EJ


 ****     BJT MODEL PARAMETERS


******************************************************************************




               MY2N3906        MY2N3904        
               PNP             NPN             
       LEVEL    1               1            
          IS    7.755210E-12  126.532000E-12 
          EG    1.05            1.05         
          BF  194.093         206.302        
          NF    1.35509         1.5          
         VAF  156.436           1.000000E+03 
         IKF     .066006         .027222     
         ISE    1.885460E-12    2.307710E-09 
          NE    1.81673         3.31052      
          BR    3.41317        20.6302       
          NR    1.5             2.89609      
         VAR    5.86061         9.39809      
         IKR    1.70599          .272221     
         ISC  764.281000E-12    2.307710E-09 
          NC    1.92376         1.9876       
         ISS    0               0            
          RB    6.48961         5.8376       
         RBM     .1              .634251     
         IRB     .1            50.3624       
          RE  100.000000E-06  100.000000E-06 
          RC    2.45044         2.65711      
         CJE    6.119280E-12    4.642140E-12 
         VJE     .4              .4          
         MJE     .248812         .256227     
         CJC    6.850070E-12    3.769610E-12 
         VJC     .4              .4          
         MJC     .279018         .238109     
        XCJC     .9              .8          
         CJS    0               0            
         VJS     .75             .75         
         MJS     .5              .5          
          FC     .478887         .512134     
          TF  521.843000E-12  419.578000E-12 
         XTF     .932702         .906167     
         VTF    9.1046          8.75418      
         ITF     .010647         .010582     
          TR  430.605000E-09   68.202300E-09 
         XTB     .1              .1          
         XTI    1               1            
          KF    0               0            
          AF    1               1            
          CN    2.2             2.42         
           D     .52             .87         


**** 09/27/25 20:24:50 *** PSpice 24.1.0 (4 September 2024) *** ID# 0 ********

 ** Profile: "PART 1B-step1-7"  [ C:\Users\dosanj5\OneDrive - McMaster University\School Files\2025 - 2026\ELEC 3EJ4\Lab 2\Pspice\3EJ


 ****     SMALL SIGNAL BIAS SOLUTION       TEMPERATURE =   27.000 DEG C


******************************************************************************



 NODE   VOLTAGE     NODE   VOLTAGE     NODE   VOLTAGE     NODE   VOLTAGE


(   VB)   -2.9370  (   VE)   -3.4903  (   VO)     .1243  (N00598)   -5.0000     

(N01594)    4.4018 (N02137)    5.0000 




    VOLTAGE SOURCE CURRENTS
    NAME         CURRENT

    V_VEE        2.231E-04
    V_Vsig       1.669E-06
    V_VCC       -1.866E-04

    TOTAL POWER DISSIPATION   2.04E-03  WATTS


**** 09/27/25 20:24:50 *** PSpice 24.1.0 (4 September 2024) *** ID# 0 ********

 ** Profile: "PART 1B-step1-7"  [ C:\Users\dosanj5\OneDrive - McMaster University\School Files\2025 - 2026\ELEC 3EJ4\Lab 2\Pspice\3EJ


 ****     OPERATING POINT INFORMATION      TEMPERATURE =   27.000 DEG C


******************************************************************************






**** BIPOLAR JUNCTION TRANSISTORS


NAME         Q_Q1        Q_Q2      
MODEL        MY2N3904    MY2N3906  
IB           2.43E-06   -1.67E-06 
IC           1.85E-04   -1.85E-04 
VBE          5.53E-01   -5.98E-01 
VBC         -3.06E+00    4.28E+00 
VCE          3.61E+00   -4.88E+00 
BETADC       7.62E+01    1.11E+02 
GM           4.71E-03    5.22E-03 
RPI          2.39E+04    2.32E+04 
RX           5.84E+00    6.49E+00 
RO           5.11E+06    7.83E+05 
CBE          1.01E-11    1.34E-11 
CBC          1.80E-12    3.10E-12 
CJS          0.00E+00    0.00E+00 
BETAAC       1.12E+02    1.21E+02 
CBX/CBX2     4.51E-13    3.45E-13 
FT/FT2       6.06E+07    4.93E+07 



          JOB CONCLUDED

**** 09/27/25 20:24:50 *** PSpice 24.1.0 (4 September 2024) *** ID# 0 ********

 ** Profile: "PART 1B-step1-7"  [ C:\Users\dosanj5\OneDrive - McMaster University\School Files\2025 - 2026\ELEC 3EJ4\Lab 2\Pspice\3EJ


 ****     JOB STATISTICS SUMMARY


******************************************************************************



  Total job time (using Solver 1)   =         .05
